VT("/net15") X,VT("/net15") Y,VT("/net17") X,VT("/net17") Y,VT("/net083") X,VT("/net083") Y
0,7.544791850040983e-07,0,2.22150149998827e-07,0,0.7999978469816118
3.5e-08,7.544791351393475e-07,3.5e-08,2.221501425860253e-07,3.5e-08,0.7999978469814338
1.05e-07,7.544791348861424e-07,1.05e-07,2.22150142561848e-07,1.05e-07,0.7999978469814322
2.45e-07,7.544791381688937e-07,2.45e-07,2.221501430991846e-07,2.45e-07,0.7999978469814413
5.249999999999999e-07,7.54479146878143e-07,5.249999999999999e-07,2.221501445883109e-07,5.249999999999999e-07,0.7999978469814664
9.990000000000001e-07,7.544791551134059e-07,9.990000000000001e-07,2.221501460479399e-07,9.990000000000001e-07,0.799997846981491
9.9900834375e-07,3.532480616404655e-07,9.9900834375e-07,1.39786896451647e-07,9.9900834375e-07,0.7999971418196991
9.990250312499998e-07,3.555255465775837e-07,9.990250312499998e-07,1.831560568838484e-07,9.990250312499998e-07,0.7999968677926518
9.990584062499994e-07,4.12610479869648e-07,9.990584062499994e-07,1.755321951189998e-07,9.990584062499994e-07,0.7999967548136167
9.991251562499987e-07,3.993543617790176e-07,9.991251562499987e-07,1.641572477457694e-07,9.991251562499987e-07,0.7999967822123698
9.992586562499972e-07,4.005653456546085e-07,9.992586562499972e-07,1.690065302036581e-07,9.992586562499972e-07,0.7999967810847892
9.9932240672772e-07,4.296347869006867e-07,9.9932240672772e-07,1.739349639210159e-07,9.9932240672772e-07,0.7999968342354078
9.993831004256184e-07,5.345788388428306e-07,9.993831004256184e-07,1.900829415199444e-07,9.993831004256184e-07,0.7999971047648287
9.994667515462349e-07,1.757689416681819e-06,9.994667515462349e-07,3.835523037232849e-07,9.994667515462349e-07,0.8000001721647974
9.995233041641782e-07,8.337901602573904e-06,9.995233041641782e-07,1.423547746307006e-06,9.995233041641782e-07,0.8000166440497548
9.995388677356862e-07,1.185486292298216e-05,9.995388677356862e-07,2.008668988741564e-06,9.995388677356862e-07,0.8000249486190506
9.995466495214403e-07,1.219608333929603e-05,9.995466495214403e-07,1.925657245147394e-06,9.995466495214403e-07,0.8000273045359203
9.995622130929485e-07,5.366790777102748e-06,9.995622130929485e-07,4.757263081302507e-07,9.995622130929485e-07,0.8000183158788884
9.995751375342299e-07,-3.705007235985101e-06,9.995751375342299e-07,-8.390426279268339e-07,9.995751375342299e-07,0.800000513149385
9.995806203063914e-07,-1.969022881399399e-06,9.995806203063914e-07,4.629060345342276e-07,9.995806203063914e-07,0.8000002843144475
9.995877340511692e-07,-7.709642270638156e-06,9.995877340511692e-07,-1.404167714433967e-06,9.995877340511692e-07,0.7999881949277406
9.995912575874081e-07,-1.572656474870095e-05,9.995912575874081e-07,-3.651940664274646e-06,9.995912575874081e-07,0.7999742362121871
9.995979964901014e-07,-3.294847284465699e-05,9.995979964901014e-07,-6.366415744636916e-06,9.995979964901014e-07,0.7999412101841384
9.9961013455164e-07,-6.462569327400237e-05,9.9961013455164e-07,-1.043251325112427e-05,9.9961013455164e-07,0.7998701489596562
9.996131421294967e-07,-6.47447044427281e-05,9.996131421294967e-07,-9.306257225371378e-06,9.996131421294967e-07,0.7998620786872996
9.9961915728521e-07,-1.882993314899681e-05,9.9961915728521e-07,3.734851820848467e-06,9.9961915728521e-07,0.7999143733702657
9.996252132973382e-07,4.550779455561364e-05,9.996252132973382e-07,1.243853652525019e-05,9.996252132973382e-07,0.8000063175482407
9.996270930214579e-07,6.074997960721608e-05,9.996270930214579e-07,1.054854456055416e-05,9.996270930214579e-07,0.8000282891771188
9.996305793892938e-07,8.647189142021938e-05,9.996305793892938e-07,1.076808158689296e-05,9.996305793892938e-07,0.8000654861410772
9.996315461898915e-07,9.237887355365108e-05,9.996315461898915e-07,1.153911449449325e-05,9.996315461898915e-07,0.8000753985918516
9.996334797910868e-07,9.499564403329845e-05,9.996334797910868e-07,1.073173506661305e-05,9.996334797910868e-07,0.8000881864739987
9.99635774588588e-07,9.065191318699118e-05,9.99635774588588e-07,9.667795765211186e-06,9.99635774588588e-07,0.8000989617869564
9.996390377954196e-07,9.439455474358163e-05,9.996390377954196e-07,1.327194240611716e-05,9.996390377954196e-07,0.8001296208986901
9.996425885216667e-07,0.000113379509807496,9.996425885216667e-07,2.015479632022208e-05,9.996425885216667e-07,0.8001833246431002
9.996463154586189e-07,0.0001270425413846153,9.996463154586189e-07,2.102747351897399e-05,9.996463154586189e-07,0.800228406037936
9.99648002681882e-07,0.0001245996161973247,9.99648002681882e-07,1.830712181061311e-05,9.99648002681882e-07,0.8002385967435008
9.996513771284083e-07,7.677062736082004e-05,9.996513771284083e-07,6.870193899608667e-06,9.996513771284083e-07,0.800211845395131
9.99655018307063e-07,-2.721524756963648e-05,9.99655018307063e-07,-5.03529292371869e-06,9.99655018307063e-07,0.8001392788415838
9.996560132991254e-07,-6.187995110092051e-05,9.996560132991254e-07,-4.647669797743316e-06,9.996560132991254e-07,0.8001244380399337
9.996580032832501e-07,-0.0001348116074662736,9.996580032832501e-07,-2.212103924470509e-06,9.996580032832501e-07,0.8001033073070044
9.996610672315141e-07,-0.0002299686957359517,9.996610672315141e-07,-7.018462477934158e-06,9.996610672315141e-07,0.8000536955196068
9.996643253959737e-07,-0.0002789296904231801,9.996643253959737e-07,-1.265777642903209e-05,9.996643253959737e-07,0.7999940491324353
9.996688939037912e-07,-0.0002767787261434436,9.996688939037912e-07,-1.643186787763545e-05,9.996688939037912e-07,0.7999155777441634
9.996744279542042e-07,-0.0002324646448498189,9.996744279542042e-07,-1.367574560487877e-05,9.996744279542042e-07,0.7998571671741423
9.996801854543599e-07,-0.0002473960655113028,9.996801854543599e-07,-1.30470134659995e-05,9.996801854543599e-07,0.7998195616537261
9.996825825747386e-07,-0.0002444761466199306,9.996825825747386e-07,-7.613994949989047e-06,9.996825825747386e-07,0.7998287365674357
9.996873768154961e-07,-0.0001219824162681523,9.996873768154961e-07,9.297923656619438e-06,9.996873768154961e-07,0.7999181963146987
9.996886481877898e-07,-6.707372224190907e-05,9.996886481877898e-07,1.174377954462056e-05,9.996886481877898e-07,0.7999486464651444
9.996911909323772e-07,0.000156992044310979,9.996911909323772e-07,1.076118273776998e-05,9.996911909323772e-07,0.7999901926242138
9.99692191625637e-07,0.0003050772447941429,9.99692191625637e-07,9.345655093242254e-06,9.99692191625637e-07,0.800000997837937
9.996941930121568e-07,0.0007286216399372813,9.996941930121568e-07,1.00670433780602e-05,9.996941930121568e-07,0.800026766208873
9.996970288237283e-07,0.001429179751882621,9.996970288237283e-07,1.432454502069108e-05,9.996970288237283e-07,0.8000703346501354
9.996992496455573e-07,0.001916119306608535,9.996992496455573e-07,1.269965781817592e-05,9.996992496455573e-07,0.80008961517715
9.997020146810258e-07,0.002423428493501165,9.997020146810258e-07,1.024835370711321e-05,9.997020146810258e-07,0.800103653751565
9.997050090233754e-07,0.002864411715462846,9.997050090233754e-07,1.296617173005313e-05,9.997050090233754e-07,0.8001300261742061
9.997101115442632e-07,0.003502928015190999,9.997101115442632e-07,2.164153678240048e-05,9.997101115442632e-07,0.8002033579893324
9.997137784675757e-07,0.003877947987460838,9.997137784675757e-07,2.051541419017396e-05,9.997137784675757e-07,0.8002389858093206
9.997152946748216e-07,0.003928778296041152,9.997152946748216e-07,1.650340529153233e-05,9.997152946748216e-07,0.8002407930920201
9.997160527784446e-07,0.003887060480927652,9.997160527784446e-07,1.33070529344983e-05,9.997160527784446e-07,0.8002346847571173
9.997175689856907e-07,0.003653963848836123,9.997175689856907e-07,5.924660336075999e-06,9.997175689856907e-07,0.8002102938589193
9.997206014001829e-07,0.0022591525012529,9.997206014001829e-07,-4.990156133562825e-06,9.997206014001829e-07,0.8001407560580368
9.997215054797846e-07,0.001482647745955949,9.997215054797846e-07,-5.119732283033073e-06,9.997215054797846e-07,0.80012064716689
9.99723313638988e-07,-0.0009446496686016318,9.99723313638988e-07,-2.846013164975118e-06,9.99723313638988e-07,0.8000908011943894
9.997258608627724e-07,-0.005554040829764757,9.997258608627724e-07,-5.225068639399916e-06,9.997258608627724e-07,0.8000466175054765
9.997283519505524e-07,-0.01032188003539216,9.997283519505524e-07,-1.039065775365543e-05,9.997283519505524e-07,0.7999976968035858
9.997318356972152e-07,-0.01693643107044376,9.997318356972152e-07,-1.340322451264794e-05,9.997318356972152e-07,0.7999403570286283
9.997388031905407e-07,-0.0297106067512303,9.997388031905407e-07,-1.589237839303168e-05,9.997388031905407e-07,0.7998512679560161
9.997460728602843e-07,-0.04609765595285623,9.997460728602843e-07,-1.23359984345116e-05,9.997460728602843e-07,0.7998016840463257
9.997480691570504e-07,-0.05149687586677949,9.997480691570504e-07,-9.438515046802028e-06,9.997480691570504e-07,0.799804000694581
9.997520617505826e-07,-0.06195928352643164,9.997520617505826e-07,5.715444163476895e-06,9.997520617505826e-07,0.7998732232434976
9.997571534208958e-07,-0.06364323968034832,9.997571534208958e-07,1.612578840794495e-05,9.997571534208958e-07,0.8000255942965037
9.997586558727192e-07,-0.05955045643094087,9.997586558727192e-07,1.447814767945285e-05,9.997586558727192e-07,0.8000836940183732
9.99761660776366e-07,-0.03510752244776161,9.99761660776366e-07,1.480230374801345e-05,9.99761660776366e-07,0.800231257541974
9.997625064348448e-07,-0.0245974987116149,9.997625064348448e-07,1.594108703049312e-05,9.997625064348448e-07,0.8002764360708453
9.997641977518023e-07,-0.0001069102227614166,9.997641977518023e-07,1.576284149912375e-05,9.997641977518023e-07,0.8003470121067611
9.99766733319664e-07,0.04522583745698618,9.99766733319664e-07,1.08706679499291e-05,9.99766733319664e-07,0.8004162296085365
9.997691643341334e-07,0.09709562437854781,9.997691643341334e-07,1.03909089023006e-05,9.997691643341334e-07,0.8004755093930088
9.997740263630724e-07,0.2204685144369641,9.997740263630724e-07,1.878191667959309e-05,9.997740263630724e-07,0.8006132862377016
9.997773709724226e-07,0.3161010395024717,9.997773709724226e-07,2.175416000992197e-05,9.997773709724226e-07,0.8007186351309399
9.997826506741157e-07,0.4634748283142368,9.997826506741157e-07,8.343354344338463e-06,9.997826506741157e-07,0.8007169663781143
9.99787134083552e-07,0.5559233526009096,9.99787134083552e-07,-1.498146974245205e-05,9.99787134083552e-07,0.8002431263348309
9.997887352659415e-07,0.5854833278929199,9.997887352659415e-07,-2.399283339034741e-05,9.997887352659415e-07,0.7998914972529669
9.997913512483393e-07,0.6363633481304483,9.997913512483393e-07,-3.45218209831363e-05,9.997913512483393e-07,0.7991194113987745
9.997948932902277e-07,0.6935402914569757,9.997948932902277e-07,-3.370262809146783e-05,9.997948932902277e-07,0.7980810135917563
9.997979540697984e-07,0.7217066551715834,9.997979540697984e-07,-2.784654677322193e-05,9.997979540697984e-07,0.7973722683957259
9.998020216552865e-07,0.7467918658732777,9.998020216552865e-07,-1.607097841605727e-05,9.998020216552865e-07,0.7966245789866898
9.998060960866545e-07,0.7601914713498626,9.998060960866545e-07,-1.464118719315836e-05,9.998060960866545e-07,0.7960464223118779
9.998128174797598e-07,0.7697817202730478,9.998128174797598e-07,-6.674988641548135e-06,9.998128174797598e-07,0.7960803043504947
9.998148429354496e-07,0.771192263191925,9.998148429354496e-07,9.944863650299427e-06,9.998148429354496e-07,0.796919957059214
9.998188938468292e-07,0.7739625804501001,9.998188938468292e-07,5.601318984239479e-05,9.998188938468292e-07,0.8002761932905565
9.998201880414514e-07,0.7749927553152218,9.998201880414514e-07,6.252240015184896e-05,9.998201880414514e-07,0.8014038971410969
9.998227764306957e-07,0.7768620900438366,9.998227764306957e-07,5.420222635712541e-05,9.998227764306957e-07,0.802665925722834
9.998237480212579e-07,0.7772898616779004,9.998237480212579e-07,5.086801377177852e-05,9.998237480212579e-07,0.802674502735311
9.998256912023823e-07,0.777519562558544,9.998256912023823e-07,6.648037873136424e-05,9.998256912023823e-07,0.8023775364292797
9.998284890419129e-07,0.7773447298383306,9.998284890419129e-07,8.602747428190236e-05,9.998284890419129e-07,0.8020176965739089
9.998295220419257e-07,0.7773008112449434,9.998295220419257e-07,8.272662053940223e-05,9.998295220419257e-07,0.8019454334212822
9.998315880419512e-07,0.777886372580641,9.998315880419512e-07,4.44647058048443e-05,9.998315880419512e-07,0.8019260811949918
9.998338167643771e-07,0.7792436520261011,9.998338167643771e-07,1.485972056727987e-05,9.998338167643771e-07,0.8019877770909306
9.998373758457136e-07,0.7819920704494412,9.998373758457136e-07,6.286180663505684e-05,9.998373758457136e-07,0.802125796400954
9.998409007556975e-07,0.7851781485770204,9.998409007556975e-07,0.0001280447443101368,9.998409007556975e-07,0.802243394188017
9.998448131147916e-07,0.7885868233311571,9.998448131147916e-07,0.0001181580162813257,9.998448131147916e-07,0.8022066840220544
9.99846484067809e-07,0.7899368598566824,9.99846484067809e-07,9.45719485097079e-05,9.99846484067809e-07,0.8021292499015782
9.998498259738439e-07,0.7920643762491253,9.998498259738439e-07,6.439093902406338e-05,9.998498259738439e-07,0.8018851690186652
9.998534355866469e-07,0.7937573846930946,9.998534355866469e-07,4.579885596321484e-05,9.998534355866469e-07,0.8015265392181575
9.998542246755722e-07,0.7941294117837658,9.998542246755722e-07,4.21132512136158e-05,9.998542246755722e-07,0.8014423098702933
9.998558028534229e-07,0.7948871239025033,9.998558028534229e-07,2.931123032095517e-05,9.998558028534229e-07,0.8012493128334428
9.998589592091242e-07,0.7958778891419098,9.998589592091242e-07,-2.488860116251258e-05,9.998589592091242e-07,0.8007402504854281
9.998621210691114e-07,0.7962262000178632,9.998621210691114e-07,-8.936613654892924e-05,9.998621210691114e-07,0.8002137258904878
9.998634819441181e-07,0.7962075667039775,9.998634819441181e-07,-0.0001224703907800343,9.998634819441181e-07,0.8000166263027306
9.998662036941315e-07,0.796194756201949,9.998662036941315e-07,-0.0001974156644110223,9.998662036941315e-07,0.7997179149365867
9.998693923884996e-07,0.7963323857334297,9.998693923884996e-07,-0.0002752343284276575,9.998693923884996e-07,0.7994475181724072
9.998709867356836e-07,0.7964281354367913,9.998709867356836e-07,-0.0003019378829357796,9.998709867356836e-07,0.7993268626268993
9.998741754300517e-07,0.7966390894962816,9.998741754300517e-07,-0.0003157642883591225,9.998741754300517e-07,0.7991390372078462
9.998789404125415e-07,0.7970973244404954,9.998789404125415e-07,-0.0002617280341422888,9.998789404125415e-07,0.7991686243956855
9.998847541943565e-07,0.7978591565214118,9.998847541943565e-07,-7.468450505829601e-05,9.998847541943565e-07,0.8002910350357668
9.998861536057088e-07,0.7980723043649062,9.998861536057088e-07,2.001012096895646e-05,9.998861536057088e-07,0.8007751792814789
9.998889524284135e-07,0.7984836894758123,9.998889524284135e-07,0.0001903375795063592,9.998889524284135e-07,0.8018506534195227
9.998936913932781e-07,0.7989901824381836,9.998936913932781e-07,0.0002478446554778697,9.998936913932781e-07,0.804160959308449
9.998968413464329e-07,0.7992146228665791,9.998968413464329e-07,0.000187063196593448,9.998968413464329e-07,0.8054673391973904
9.998980336373731e-07,0.7992831425718698,9.998980336373731e-07,0.0001516622122248032,9.998980336373731e-07,0.8058307513298341
9.999003552335681e-07,0.7994089708421587,9.999003552335681e-07,0.0001024030529393742,9.999003552335681e-07,0.80596295629346
9.999035452654709e-07,0.7995532172396267,9.999035452654709e-07,7.198675421555969e-05,9.999035452654709e-07,0.8055749633318386
9.999062457687591e-07,0.7996442256434843,9.999062457687591e-07,5.812080411843375e-05,9.999062457687591e-07,0.8054265857101958
9.999107498018601e-07,0.799735141619873,9.999107498018601e-07,4.227919906069299e-05,9.999107498018601e-07,0.805683087536749
9.999165805788479e-07,0.7997633625628018,9.999165805788479e-07,2.058826512630555e-05,9.999165805788479e-07,0.8056270928320711
9.99923131871262e-07,0.7997052703878046,9.99923131871262e-07,-8.861019449116725e-07,9.99923131871262e-07,0.8041440074201476
9.999293170713817e-07,0.7996389174472006,9.999293170713817e-07,-1.130876466543624e-05,9.999293170713817e-07,0.8019339388810817
9.999312022647036e-07,0.7996426052234969,9.999312022647036e-07,-4.925601074655815e-06,9.999312022647036e-07,0.8012292141065899
9.999345771921894e-07,0.7996808552580963,9.999345771921894e-07,2.814231433246746e-06,9.999345771921894e-07,0.8003168907791425
9.999388960715029e-07,0.7996879701717166,9.999388960715029e-07,-7.106146777744967e-06,9.999388960715029e-07,0.7996206664695797
9.999426088154978e-07,0.7996476864250687,9.999426088154978e-07,-1.753906568540057e-05,9.999426088154978e-07,0.7992629707650604
9.999477606043758e-07,0.7996280962664246,9.999477606043758e-07,-1.76803290385044e-05,9.999477606043758e-07,0.7990826649950309
9.999530061809457e-07,0.79961970796993,9.999530061809457e-07,-2.319040593605437e-05,9.999530061809457e-07,0.7990325779348851
9.999552103834591e-07,0.79962642712645,9.999552103834591e-07,-2.273168228712142e-05,9.999552103834591e-07,0.7990543620802766
9.99959618788486e-07,0.799673422068287,9.99959618788486e-07,-1.383176363476902e-05,9.99959618788486e-07,0.7991590531476287
9.999643993185006e-07,0.7997615901975892,9.999643993185006e-07,-2.696974867970432e-07,9.999643993185006e-07,0.7993450619796894
9.999656124245405e-07,0.7997829727208765,9.999656124245405e-07,1.26796493323809e-06,9.999656124245405e-07,0.7993946206564302
9.999680386366203e-07,0.7998208282613195,9.999680386366203e-07,3.408884290997935e-06,9.999680386366203e-07,0.7994885540129426
9.999714949544163e-07,0.7998642779318699,9.999714949544163e-07,6.303234248919361e-06,9.999714949544163e-07,0.7995977682979467
9.999761289350873e-07,0.799871885126528,9.999761289350873e-07,-4.367457393516503e-07,9.999761289350873e-07,0.7996617593391765
9.999770046583908e-07,0.7998705319443183,9.999770046583908e-07,-6.098645377403206e-07,9.999770046583908e-07,0.7996715698634072
9.99978756104998e-07,0.7998647495451539,9.99978756104998e-07,-1.565620586006596e-06,9.99978756104998e-07,0.7996903089663653
9.999818683830705e-07,0.7998574183013254,9.999818683830705e-07,-2.059548170391032e-06,9.999818683830705e-07,0.7997284180352536
9.999860918186571e-07,0.7998685133228655,9.999860918186571e-07,2.390124765243489e-06,9.999860918186571e-07,0.7997974569113192
9.999897728062578e-07,0.79989932882671,9.999897728062578e-07,8.538189665345643e-06,9.999897728062578e-07,0.7998739262361191
9.999947913782817e-07,0.7999359620256042,9.999947913782817e-07,1.106467662389456e-05,9.999947913782817e-07,0.7999636863936426
9.999960935337113e-07,0.7999352240273258,9.999960935337113e-07,8.627127333711995e-06,9.999960935337113e-07,0.7999736000277274
9.999980467668556e-07,0.7999218577449722,9.999980467668556e-07,2.435216053431672e-06,9.999980467668556e-07,0.7999722692703629
1e-06,0.7998972690642762,1e-06,-3.89701547730482e-06,1e-06,0.7999549278115371
1.000003906466289e-06,0.799870880535737,1.000003906466289e-06,-4.506660689293967e-06,1.000003906466289e-06,0.7999372653751845
1.000006678694034e-06,0.7998624601245576,1.000006678694034e-06,-2.477368741753201e-06,1.000006678694034e-06,0.7999356720772112
1.000011012272359e-06,0.7998280276422218,1.000011012272359e-06,-9.793072255561808e-06,1.000011012272359e-06,0.7998971770292227
1.000016001807287e-06,0.799782572257875,1.000016001807287e-06,-1.667819373355388e-05,1.000016001807287e-06,0.7998350290518079
1.000021297441613e-06,0.7997640043090155,1.000021297441613e-06,-1.538334022619124e-05,1.000021297441613e-06,0.7997987399382708
1.000023378264293e-06,0.7997677251700145,1.000023378264293e-06,-1.244451270009935e-05,1.000023378264293e-06,0.7997965593856802
1.000027539909652e-06,0.7998187311521725,1.000027539909652e-06,1.008737045992831e-06,1.000027539909652e-06,0.7998505322965698
1.000028604100988e-06,0.7998365102215956,1.000028604100988e-06,3.674984579167018e-06,1.000028604100988e-06,0.799871074175138
1.00003073248366e-06,0.799860231634705,1.00003073248366e-06,3.840725181161017e-06,1.00003073248366e-06,0.7998993642229384
