VT("/net14") X,VT("/net14") Y,VT("/I0/net18") X,VT("/I0/net18") Y,VT("/net16") X,VT("/net16") Y,VT("/net17") X,VT("/net17") Y
0,4.192806681811384e-07,0,3.164397019814513e-07,0,1.95094171920375e-07,0,2.22150149998827e-07
3.5e-08,4.192806472066138e-07,3.5e-08,3.16439689207471e-07,3.5e-08,1.950941670367768e-07,3.5e-08,2.221501425860253e-07
1.05e-07,4.1928064837784e-07,1.05e-07,3.164396892493159e-07,1.05e-07,1.950941670191099e-07,1.05e-07,2.22150142561848e-07
2.45e-07,4.192806514128459e-07,2.45e-07,3.164396903570217e-07,2.45e-07,1.950941674519473e-07,2.45e-07,2.221501430991846e-07
5.249999999999999e-07,4.192806557621991e-07,5.249999999999999e-07,3.164396928220901e-07,5.249999999999999e-07,1.950941681949243e-07,5.249999999999999e-07,2.221501445883109e-07
9.990000000000001e-07,4.192806583116166e-07,9.990000000000001e-07,3.164396954306728e-07,9.990000000000001e-07,1.950941690116586e-07,9.990000000000001e-07,2.221501460479399e-07
9.9900834375e-07,2.368535192626365e-07,9.9900834375e-07,1.740661025001459e-07,9.9900834375e-07,1.187521800000308e-07,9.9900834375e-07,1.39786896451647e-07
9.990250312499998e-07,2.669510520291022e-07,9.990250312499998e-07,2.356198562738738e-07,9.990250312499998e-07,1.667466955337088e-07,9.990250312499998e-07,1.831560568838484e-07
9.990584062499994e-07,2.792034441282412e-07,9.990584062499994e-07,2.369398261959256e-07,9.990584062499994e-07,1.609957962297218e-07,9.990584062499994e-07,1.755321951189998e-07
9.991251562499987e-07,2.657749507710447e-07,9.991251562499987e-07,2.161750816351547e-07,9.991251562499987e-07,1.569078994426967e-07,9.991251562499987e-07,1.641572477457694e-07
9.992586562499972e-07,2.705289764582239e-07,9.992586562499972e-07,2.242315305016541e-07,9.992586562499972e-07,1.615112883500756e-07,9.992586562499972e-07,1.690065302036581e-07
9.9932240672772e-07,2.829824746904011e-07,9.9932240672772e-07,2.334654349952573e-07,9.9932240672772e-07,1.642322607264991e-07,9.9932240672772e-07,1.739349639210159e-07
9.993831004256184e-07,3.271383772579774e-07,9.993831004256184e-07,2.618258615845087e-07,9.993831004256184e-07,1.773008600739066e-07,9.993831004256184e-07,1.900829415199444e-07
9.994667515462349e-07,8.459774121090123e-07,9.994667515462349e-07,6.026467808512491e-07,9.994667515462349e-07,3.355844395317759e-07,9.994667515462349e-07,3.835523037232849e-07
9.995233041641782e-07,3.636121872417153e-06,9.995233041641782e-07,2.435666411299635e-06,9.995233041641782e-07,1.188198185270315e-06,9.995233041641782e-07,1.423547746307006e-06
9.995388677356862e-07,5.14217554809058e-06,9.995388677356862e-07,3.461457374119463e-06,9.995388677356862e-07,1.755073817939477e-06,9.995388677356862e-07,2.008668988741564e-06
9.995466495214403e-07,5.203825113713429e-06,9.995466495214403e-07,3.354495594850464e-06,9.995466495214403e-07,1.580410064575739e-06,9.995466495214403e-07,1.925657245147394e-06
9.995622130929485e-07,2.073593488744337e-06,9.995622130929485e-07,7.968056570850973e-07,9.995622130929485e-07,8.298115876893702e-08,9.995622130929485e-07,4.757263081302507e-07
9.995751375342299e-07,-1.639846043725834e-06,9.995751375342299e-07,-1.652245461151972e-06,9.995751375342299e-07,-1.776052123935028e-06,9.995751375342299e-07,-8.390426279268339e-07
9.995806203063914e-07,-7.866697994264873e-08,9.995806203063914e-07,2.796338343300916e-07,9.995806203063914e-07,-2.147077307119233e-06,9.995806203063914e-07,4.629060345342276e-07
9.995877340511692e-07,-3.158060464602209e-06,9.995877340511692e-07,-2.46280347403209e-06,9.995877340511692e-07,-4.675789184736617e-06,9.995877340511692e-07,-1.404167714433967e-06
9.995912575874081e-07,-7.336636069695398e-06,9.995912575874081e-07,-6.162110941074788e-06,9.995912575874081e-07,-6.601078307320655e-06,9.995912575874081e-07,-3.651940664274646e-06
9.995979964901014e-07,-1.474800722404002e-05,9.995979964901014e-07,-1.138231089276839e-05,9.995979964901014e-07,-9.227588457199139e-06,9.995979964901014e-07,-6.366415744636916e-06
9.9961013455164e-07,-2.723696656555393e-05,9.9961013455164e-07,-1.892013187877313e-05,9.9961013455164e-07,-1.315578499000977e-05,9.9961013455164e-07,-1.043251325112427e-05
9.996131421294967e-07,-2.647524285805268e-05,9.996131421294967e-07,-1.733646344096891e-05,9.996131421294967e-07,-1.066361513815241e-05,9.996131421294967e-07,-9.306257225371378e-06
9.9961915728521e-07,-3.554297840111411e-06,9.9961915728521e-07,3.946625334751539e-06,9.9961915728521e-07,1.072254598696492e-05,9.9961915728521e-07,3.734851820848467e-06
9.996252132973382e-07,2.100119216795534e-05,9.996252132973382e-07,2.138175048419109e-05,9.996252132973382e-07,2.30228751274808e-05,9.996252132973382e-07,1.243853652525019e-05
9.996270930214579e-07,2.311351487075853e-05,9.996270930214579e-07,2.040480624366837e-05,9.996270930214579e-07,1.988219986702267e-05,9.996270930214579e-07,1.054854456055416e-05
9.996305793892938e-07,2.753905767236701e-05,9.996305793892938e-07,2.098032963284526e-05,9.996305793892938e-07,1.679264334288941e-05,9.996305793892938e-07,1.076808158689296e-05
9.996315461898915e-07,2.897228363111834e-05,9.996315461898915e-07,2.174734477724981e-05,9.996315461898915e-07,1.709812110255745e-05,9.996315461898915e-07,1.153911449449325e-05
9.996334797910868e-07,2.892989304208411e-05,9.996334797910868e-07,2.048875104254776e-05,9.996334797910868e-07,1.670151163759108e-05,9.996334797910868e-07,1.073173506661305e-05
9.99635774588588e-07,2.799488208609822e-05,9.99635774588588e-07,1.865393486158847e-05,9.99635774588588e-07,1.563286918790011e-05,9.99635774588588e-07,9.667795765211186e-06
9.996390377954196e-07,3.384366064632961e-05,9.996390377954196e-07,2.366887130545195e-05,9.996390377954196e-07,1.806772237368451e-05,9.996390377954196e-07,1.327194240611716e-05
9.996425885216667e-07,4.701527466951881e-05,9.996425885216667e-07,3.502489148809569e-05,9.996425885216667e-07,2.345599525115838e-05,9.996425885216667e-07,2.015479632022208e-05
9.996463154586189e-07,5.344165205011324e-05,9.996463154586189e-07,3.814070493228379e-05,9.996463154586189e-07,2.245778132507921e-05,9.996463154586189e-07,2.102747351897399e-05
9.99648002681882e-07,5.171644284155113e-05,9.99648002681882e-07,3.47226662568108e-05,9.99648002681882e-07,1.825444920124324e-05,9.99648002681882e-07,1.830712181061311e-05
9.996513771284083e-07,3.387569697309299e-05,9.996513771284083e-07,1.622903011344978e-05,9.996513771284083e-07,2.628648629681894e-06,9.996513771284083e-07,6.870193899608667e-06
9.99655018307063e-07,6.897152895042644e-06,9.99655018307063e-07,-6.47360621043352e-06,9.99655018307063e-07,-1.521049515597459e-05,9.99655018307063e-07,-5.03529292371869e-06
9.996560132991254e-07,3.727966300076118e-06,9.996560132991254e-07,-7.655083515684254e-06,9.996560132991254e-07,-1.742781842011302e-05,9.996560132991254e-07,-4.647669797743316e-06
9.996580032832501e-07,1.441699415873869e-06,9.996580032832501e-07,-6.033140662304578e-06,9.996580032832501e-07,-2.051726528035461e-05,9.996580032832501e-07,-2.212103924470509e-06
9.996610672315141e-07,-1.02970274061591e-05,9.996610672315141e-07,-1.306389166021072e-05,9.996610672315141e-07,-2.807444327203111e-05,9.996610672315141e-07,-7.018462477934158e-06
9.996643253959737e-07,-2.401606251820782e-05,9.996643253959737e-07,-2.213754323930198e-05,9.996643253959737e-07,-3.027720775419104e-05,9.996643253959737e-07,-1.265777642903209e-05
9.996688939037912e-07,-3.798159910585388e-05,9.996688939037912e-07,-3.001029326841328e-05,9.996688939037912e-07,-2.725328226135548e-05,9.996688939037912e-07,-1.643186787763545e-05
9.996744279542042e-07,-4.010887344190719e-05,9.996744279542042e-07,-2.731656583073211e-05,9.996744279542042e-07,-1.857752862925286e-05,9.996744279542042e-07,-1.367574560487877e-05
9.996801854543599e-07,-3.9631755533909e-05,9.996801854543599e-07,-2.53595159243553e-05,9.996801854543599e-07,-1.422083712797202e-05,9.996801854543599e-07,-1.30470134659995e-05
9.996825825747386e-07,-3.108605021282018e-05,9.996825825747386e-07,-1.674180529897893e-05,9.996825825747386e-07,-4.233361107035036e-06,9.996825825747386e-07,-7.613994949989047e-06
9.996873768154961e-07,3.168006929451497e-06,9.996873768154961e-07,1.312329015816451e-05,9.996873768154961e-07,2.682021519290285e-05,9.996873768154961e-07,9.297923656619438e-06
9.996886481877898e-07,1.174452243343699e-05,9.996886481877898e-07,1.915490425628616e-05,9.996886481877898e-07,3.207184185269727e-05,9.996886481877898e-07,1.174377954462056e-05
9.996911909323772e-07,1.897269080837497e-05,9.996911909323772e-07,2.146029640129014e-05,9.996911909323772e-07,2.964030574067799e-05,9.996911909323772e-07,1.076118273776998e-05
9.99692191625637e-07,1.926389775188955e-05,9.99692191625637e-07,2.039633863537098e-05,9.99692191625637e-07,2.620117481631674e-05,9.99692191625637e-07,9.345655093242254e-06
9.996941930121568e-07,2.273210777097086e-05,9.996941930121568e-07,2.257775579931042e-05,9.996941930121568e-07,2.472439373826197e-05,9.996941930121568e-07,1.00670433780602e-05
9.996970288237283e-07,3.14716597691626e-05,9.996970288237283e-07,2.866095180197669e-05,9.996970288237283e-07,2.770749657883787e-05,9.996970288237283e-07,1.432454502069108e-05
9.996992496455573e-07,3.201485537771511e-05,9.996992496455573e-07,2.575734996643121e-05,9.996992496455573e-07,2.524632216207614e-05,9.996992496455573e-07,1.269965781817592e-05
9.997020146810258e-07,3.020475525785505e-05,9.997020146810258e-07,2.047002532274081e-05,9.997020146810258e-07,2.158785863158528e-05,9.997020146810258e-07,1.024835370711321e-05
9.997050090233754e-07,3.45702208723316e-05,9.997050090233754e-07,2.315296126413794e-05,9.997050090233754e-07,2.244378407185739e-05,9.997050090233754e-07,1.296617173005313e-05
9.997101115442632e-07,5.134608943364269e-05,9.997101115442632e-07,3.730062641319152e-05,9.997101115442632e-07,2.756531209735455e-05,9.997101115442632e-07,2.164153678240048e-05
9.997137784675757e-07,5.412113691521049e-05,9.997137784675757e-07,3.678584669435571e-05,9.997137784675757e-07,2.291315487482877e-05,9.997137784675757e-07,2.051541419017396e-05
9.997152946748216e-07,4.99610335856842e-05,9.997152946748216e-07,3.030224792212578e-05,9.997152946748216e-07,1.640422177480043e-05,9.997152946748216e-07,1.650340529153233e-05
9.997160527784446e-07,4.554618500924202e-05,9.997160527784446e-07,2.449668387367003e-05,9.997160527784446e-07,1.145874559312919e-05,9.997160527784446e-07,1.33070529344983e-05
9.997175689856907e-07,3.347590027477764e-05,9.997175689856907e-07,1.01751721464502e-05,9.997175689856907e-07,3.071663925815036e-07,9.997175689856907e-07,5.924660336075999e-06
9.997206014001829e-07,9.291809304242091e-06,9.997206014001829e-07,-1.569549658504575e-05,9.997206014001829e-07,-1.808518640270821e-05,9.997206014001829e-07,-4.990156133562825e-06
9.997215054797846e-07,5.01859823468713e-06,9.997215054797846e-07,-2.094708094091085e-05,9.997215054797846e-07,-2.140307081841663e-05,9.997215054797846e-07,-5.119732283033073e-06
9.99723313638988e-07,2.154563858018503e-06,9.99723313638988e-07,-2.826073732761362e-05,9.99723313638988e-07,-2.694614197708546e-05,9.99723313638988e-07,-2.846013164975118e-06
9.997258608627724e-07,-4.748889373259081e-06,9.997258608627724e-07,-3.612005976317236e-05,9.997258608627724e-07,-3.591771309286179e-05,9.997258608627724e-07,-5.225068639399916e-06
9.997283519505524e-07,-1.622899652581295e-05,9.997283519505524e-07,-3.823141165667275e-05,9.997283519505524e-07,-4.03436320279516e-05,9.997283519505524e-07,-1.039065775365543e-05
9.997318356972152e-07,-2.844316572957761e-05,9.997318356972152e-07,-3.20598739451301e-05,9.997318356972152e-07,-3.652998246854621e-05,9.997318356972152e-07,-1.340322451264794e-05
9.997388031905407e-07,-4.239023264610786e-05,9.997388031905407e-07,-2.704911988566082e-05,9.997388031905407e-07,-2.645520961174335e-05,9.997388031905407e-07,-1.589237839303168e-05
9.997460728602843e-07,-3.884104060664325e-05,9.997460728602843e-07,-2.123277423724298e-05,9.997460728602843e-07,-1.40412330988936e-05,9.997460728602843e-07,-1.23359984345116e-05
9.997480691570504e-07,-3.293342852048116e-05,9.997480691570504e-07,-6.386389420989373e-06,9.997480691570504e-07,-5.777213946948213e-06,9.997480691570504e-07,-9.438515046802028e-06
9.997520617505826e-07,-3.795757912169941e-06,9.997520617505826e-07,5.918666284355921e-05,9.997520617505826e-07,2.67252260614831e-05,9.997520617505826e-07,5.715444163476895e-06
9.997571534208958e-07,2.299513828953602e-05,9.997571534208958e-07,8.623732284237295e-05,9.997571534208958e-07,4.461212585714073e-05,9.997571534208958e-07,1.612578840794495e-05
9.997586558727192e-07,2.401832444471888e-05,9.997586558727192e-07,8.165052320498438e-05,9.997586558727192e-07,3.787065743838542e-05,9.997586558727192e-07,1.447814767945285e-05
9.99761660776366e-07,2.724304493603887e-05,9.99761660776366e-07,8.611156637497351e-05,9.99761660776366e-07,2.586923814414053e-05,9.99761660776366e-07,1.480230374801345e-05
9.997625064348448e-07,2.905049188192352e-05,9.997625064348448e-07,8.841980976906395e-05,9.997625064348448e-07,2.492191867906192e-05,9.997625064348448e-07,1.594108703049312e-05
9.997641977518023e-07,3.134867829144601e-05,9.997641977518023e-07,8.863204103844848e-05,9.997641977518023e-07,2.562107261177457e-05,9.997641977518023e-07,1.576284149912375e-05
9.99766733319664e-07,2.993217706299693e-05,9.99766733319664e-07,9.555208526674273e-05,9.99766733319664e-07,2.320192516543093e-05,9.99766733319664e-07,1.08706679499291e-05
9.997691643341334e-07,3.219542691054237e-05,9.997691643341334e-07,0.0001275135300522301,9.997691643341334e-07,2.159450326580126e-05,9.997691643341334e-07,1.03909089023006e-05
9.997740263630724e-07,4.74989146950523e-05,9.997740263630724e-07,0.0002050839449834274,9.997740263630724e-07,2.716727253678342e-05,9.997740263630724e-07,1.878191667959309e-05
9.997773709724226e-07,5.307946247240295e-05,9.997773709724226e-07,0.0002028780301525444,9.997773709724226e-07,2.838058722239734e-05,9.997773709724226e-07,2.175416000992197e-05
9.997826506741157e-07,3.446579454475719e-05,9.997826506741157e-07,6.758584774911594e-05,9.997826506741157e-07,1.297978402168176e-05,9.997826506741157e-07,8.343354344338463e-06
9.99787134083552e-07,4.382214065067964e-06,9.99787134083552e-07,-8.420782480958308e-05,9.99787134083552e-07,-5.377453339508109e-06,9.99787134083552e-07,-1.498146974245205e-05
9.997887352659415e-07,-4.603573011150007e-07,9.997887352659415e-07,-0.0001254923833656825,9.997887352659415e-07,-6.618591200012871e-06,9.997887352659415e-07,-2.399283339034741e-05
9.997913512483393e-07,-3.225792574850399e-06,9.997913512483393e-07,-0.000153107171248193,9.997913512483393e-07,-6.966167398197925e-06,9.997913512483393e-07,-3.45218209831363e-05
9.997948932902277e-07,-1.38134123592579e-05,9.997948932902277e-07,-0.0001554783353960814,9.997948932902277e-07,-1.369169593899894e-05,9.997948932902277e-07,-3.370262809146783e-05
9.997979540697984e-07,-2.805234424468191e-05,9.997979540697984e-07,-0.0001465636307829183,9.997979540697984e-07,-1.985817832696636e-05,9.997979540697984e-07,-2.784654677322193e-05
9.998020216552865e-07,-3.279208019768832e-05,9.998020216552865e-07,-0.0001092396702074072,9.998020216552865e-07,-1.587089808449368e-05,9.998020216552865e-07,-1.607097841605727e-05
9.998060960866545e-07,-3.890873038476477e-05,9.998060960866545e-07,-8.365908856502763e-05,9.998060960866545e-07,-1.620996923406369e-05,9.998060960866545e-07,-1.464118719315836e-05
9.998128174797598e-07,-3.715986173694347e-05,9.998128174797598e-07,-5.09589123580349e-05,9.998128174797598e-07,-1.261569294932291e-05,9.998128174797598e-07,-6.674988641548135e-06
9.998148429354496e-07,-2.952223473962742e-05,9.998148429354496e-07,-3.861316445570861e-05,9.998148429354496e-07,-8.092762672099445e-06,9.998148429354496e-07,9.944863650299427e-06
9.998188938468292e-07,-2.560730902097427e-06,9.998188938468292e-07,-8.13905290688758e-06,9.998188938468292e-07,5.023432794694847e-06,9.998188938468292e-07,5.601318984239479e-05
9.998201880414514e-07,5.580536418391137e-06,9.998201880414514e-07,-5.516030392578424e-07,9.998201880414514e-07,7.69281667649702e-06,9.998201880414514e-07,6.252240015184896e-05
9.998227764306957e-07,1.445047303180062e-05,9.998227764306957e-07,5.751706308049087e-06,9.998227764306957e-07,8.126713879561632e-06,9.998227764306957e-07,5.420222635712541e-05
9.998237480212579e-07,1.454677918936301e-05,9.998237480212579e-07,4.839750186075986e-06,9.998237480212579e-07,6.736214544094958e-06,9.998237480212579e-07,5.086801377177852e-05
9.998256912023823e-07,1.502231120673912e-05,9.998256912023823e-07,4.06655610044551e-06,9.998256912023823e-07,5.502735120303711e-06,9.998256912023823e-07,6.648037873136424e-05
9.998284890419129e-07,2.148364200725837e-05,9.998284890419129e-07,1.012145079542001e-05,9.998284890419129e-07,8.260253489737261e-06,9.998284890419129e-07,8.602747428190236e-05
9.998295220419257e-07,2.436468796973838e-05,9.998295220419257e-07,1.306153690915774e-05,9.998295220419257e-07,9.515141620481326e-06,9.998295220419257e-07,8.272662053940223e-05
9.998315880419512e-07,2.571300218922624e-05,9.998315880419512e-07,1.41220295212507e-05,9.998315880419512e-07,8.873911059032384e-06,9.998315880419512e-07,4.44647058048443e-05
9.998338167643771e-07,2.722114099010794e-05,9.998338167643771e-07,1.523759399719827e-05,9.998338167643771e-07,8.896867641755965e-06,9.998338167643771e-07,1.485972056727987e-05
9.998373758457136e-07,3.697067183433117e-05,9.998373758457136e-07,2.394045001212265e-05,9.998373758457136e-07,1.33664577812422e-05,9.998373758457136e-07,6.286180663505684e-05
9.998409007556975e-07,4.99793821887789e-05,9.998409007556975e-07,3.466028897393552e-05,9.998409007556975e-07,1.836381848339971e-05,9.998409007556975e-07,0.0001280447443101368
9.998448131147916e-07,5.612044339823038e-05,9.998448131147916e-07,3.755211058021042e-05,9.998448131147916e-07,1.852282924939343e-05,9.998448131147916e-07,0.0001181580162813257
9.99846484067809e-07,5.396427948513203e-05,9.99846484067809e-07,3.402683696356679e-05,9.99846484067809e-07,1.58583382138161e-05,9.99846484067809e-07,9.45719485097079e-05
9.998498259738439e-07,3.91277358949883e-05,9.998498259738439e-07,1.899075201061736e-05,9.998498259738439e-07,6.967364775877636e-06,9.998498259738439e-07,6.439093902406338e-05
9.998534355866469e-07,2.208809958684314e-05,9.998534355866469e-07,5.753759584490166e-06,9.998534355866469e-07,5.292061638469469e-07,9.998534355866469e-07,4.579885596321484e-05
9.998542246755722e-07,2.121838582908517e-05,9.998542246755722e-07,6.164161718200109e-06,9.998542246755722e-07,1.164813409398364e-06,9.998542246755722e-07,4.21132512136158e-05
9.998558028534229e-07,1.934906858407759e-05,9.998558028534229e-07,6.618009780668142e-06,9.998558028534229e-07,1.655001611883099e-06,9.998558028534229e-07,2.931123032095517e-05
9.998589592091242e-07,5.225065627702151e-07,9.998589592091242e-07,-8.403306096006273e-06,9.998589592091242e-07,-7.60505569683314e-06,9.998589592091242e-07,-2.488860116251258e-05
9.998621210691114e-07,-2.249660148281671e-05,9.998621210691114e-07,-2.624907732292906e-05,9.998621210691114e-07,-1.705005200282692e-05,9.998621210691114e-07,-8.936613654892924e-05
9.998634819441181e-07,-3.109260228654931e-05,9.998634819441181e-07,-3.186228491538301e-05,9.998634819441181e-07,-1.960679531549794e-05,9.998634819441181e-07,-0.0001224703907800343
9.998662036941315e-07,-3.810641504545382e-05,9.998662036941315e-07,-3.262183462538311e-05,9.998662036941315e-07,-1.857925477202928e-05,9.998662036941315e-07,-0.0001974156644110223
9.998693923884996e-07,-4.466700339406689e-05,9.998693923884996e-07,-3.40621797673416e-05,9.998693923884996e-07,-1.922601877849623e-05,9.998693923884996e-07,-0.0002752343284276575
9.998709867356836e-07,-5.001861790671912e-05,9.998709867356836e-07,-3.77484340854287e-05,9.998709867356836e-07,-2.170310542677718e-05,9.998709867356836e-07,-0.0003019378829357796
9.998741754300517e-07,-5.964785768303146e-05,9.998741754300517e-07,-4.395126818582663e-05,9.998741754300517e-07,-2.476183921132398e-05,9.998741754300517e-07,-0.0003157642883591225
9.998789404125415e-07,-5.907452816406685e-05,9.998789404125415e-07,-3.899993221802516e-05,9.998789404125415e-07,-2.044282002546379e-05,9.998789404125415e-07,-0.0002617280341422888
