VT("/net2") X,VT("/net2") Y,VT("/net7") X,VT("/net7") Y,VT("/net14") X,VT("/net14") Y,VT("/net039") X,VT("/net039") Y,VT("/net069") X,VT("/net069") Y
0,3.748759585001909e-07,0,5.231730881928372e-07,0,4.192806681811384e-07,0,5.668264659782656e-07,0,5.892072943028595e-07
3.5e-08,3.748759373702994e-07,3.5e-08,5.231730482067598e-07,3.5e-08,4.192806472066138e-07,3.5e-08,5.668264272872608e-07,3.5e-08,5.892072557156963e-07
1.05e-07,3.74875937535616e-07,1.05e-07,5.231730478321419e-07,1.05e-07,4.1928064837784e-07,1.05e-07,5.668264271923629e-07,1.05e-07,5.892072563835829e-07
2.45e-07,3.748759391928641e-07,2.45e-07,5.231730507921719e-07,2.45e-07,4.192806514128459e-07,2.45e-07,5.668264302866471e-07,2.45e-07,5.892072599374796e-07
5.249999999999999e-07,3.748759434053633e-07,5.249999999999999e-07,5.231730581324878e-07,5.249999999999999e-07,4.192806557621991e-07,5.249999999999999e-07,5.668264374150594e-07,5.249999999999999e-07,5.892072670589039e-07
9.990000000000001e-07,3.748759473473494e-07,9.990000000000001e-07,5.231730649155007e-07,9.990000000000001e-07,4.192806583116166e-07,9.990000000000001e-07,5.668264443897652e-07,9.990000000000001e-07,5.89207273430382e-07
9.9900834375e-07,-0.000273709971060243,9.9900834375e-07,2.261391529613554e-07,9.9900834375e-07,2.368535192626365e-07,9.9900834375e-07,2.264999777398996e-07,9.9900834375e-07,2.480756753659405e-07
9.990250312499998e-07,-0.0004079736373384369,9.990250312499998e-07,2.360755899177578e-07,9.990250312499998e-07,2.669510520291022e-07,9.990250312499998e-07,2.697123687157129e-07,9.990250312499998e-07,2.936516660290176e-07
9.990584062499994e-07,-0.0004002798009521834,9.990584062499994e-07,2.421771801820848e-07,9.990584062499994e-07,2.792034441282412e-07,9.990584062499994e-07,3.101879055157394e-07,9.990584062499994e-07,3.347040699825864e-07
9.991251562499987e-07,-0.0004009359454072883,9.991251562499987e-07,2.320213069488113e-07,9.991251562499987e-07,2.657749507710447e-07,9.991251562499987e-07,2.828718529820478e-07,9.991251562499987e-07,3.056953773112561e-07
9.992586562499972e-07,-0.000473151997496875,9.992586562499972e-07,2.365536441855075e-07,9.992586562499972e-07,2.705289764582239e-07,9.992586562499972e-07,2.904706613429051e-07,9.992586562499972e-07,3.139545539214046e-07
9.9932240672772e-07,-9.646268627727081e-05,9.9932240672772e-07,2.567192000834456e-07,9.9932240672772e-07,2.829824746904011e-07,9.9932240672772e-07,3.153523906897342e-07,9.9932240672772e-07,3.390157142992627e-07
9.993831004256184e-07,0.002751278874148241,9.993831004256184e-07,3.382409651111921e-07,9.993831004256184e-07,3.271383772579774e-07,9.993831004256184e-07,3.974847048139899e-07,9.993831004256184e-07,4.208167376327746e-07
9.994667515462349e-07,0.03453469176835085,9.994667515462349e-07,1.283910900218936e-06,9.994667515462349e-07,8.459774121090123e-07,9.994667515462349e-07,1.36626130564484e-06,9.994667515462349e-07,1.387031343635366e-06
9.995233041641782e-07,0.2012005580301082,9.995233041641782e-07,6.366973957600512e-06,9.995233041641782e-07,3.636121872417153e-06,9.995233041641782e-07,6.578641785792929e-06,9.995233041641782e-07,6.585722153391531e-06
9.995388677356862e-07,0.2748816872891569,9.995388677356862e-07,9.05488951187614e-06,9.995388677356862e-07,5.14217554809058e-06,9.995388677356862e-07,9.390620871964075e-06,9.995388677356862e-07,9.393018395302615e-06
9.995466495214403e-07,0.3182480445103048,9.995466495214403e-07,9.358988966565326e-06,9.995466495214403e-07,5.203825113713429e-06,9.995466495214403e-07,9.533268606550749e-06,9.995466495214403e-07,9.525811843196857e-06
9.995622130929485e-07,0.4058033048334919,9.995622130929485e-07,4.5544872570155e-06,9.995622130929485e-07,2.073593488744337e-06,9.995622130929485e-07,3.62126849020373e-06,9.995622130929485e-07,3.585556961678173e-06
9.995751375342299e-07,0.4756848457806884,9.995751375342299e-07,-1.864447435314334e-06,9.995751375342299e-07,-1.639846043725834e-06,9.995751375342299e-07,-3.496794080501568e-06,9.995751375342299e-07,-3.521465837415152e-06
9.995806203063914e-07,0.513603160696432,9.995806203063914e-07,5.020556041441289e-08,9.995806203063914e-07,-7.866697994264873e-08,9.995806203063914e-07,-9.067375842167944e-07,9.995806203063914e-07,-8.907648984060046e-07
9.995877340511692e-07,0.5721448094720697,9.995877340511692e-07,-5.034072452104023e-06,9.995877340511692e-07,-3.158060464602209e-06,9.995877340511692e-07,-6.160850458543782e-06,9.995877340511692e-07,-6.13213222836322e-06
9.995912575874081e-07,0.6017947217987364,9.995912575874081e-07,-1.159221296770414e-05,9.995912575874081e-07,-7.336636069695398e-06,9.995912575874081e-07,-1.366574442623987e-05,9.995912575874081e-07,-1.367585428848858e-05
9.995979964901014e-07,0.6531763881125517,9.995979964901014e-07,-2.400786105948577e-05,9.995979964901014e-07,-1.474800722404002e-05,9.995979964901014e-07,-2.792402019135512e-05,9.995979964901014e-07,-2.797740873031839e-05
9.9961013455164e-07,0.7211404974255039,9.9961013455164e-07,-4.668089378012239e-05,9.9961013455164e-07,-2.723696656555393e-05,9.9961013455164e-07,-5.19122661453714e-05,9.9961013455164e-07,-5.186828842713353e-05
9.996131421294967e-07,0.732022671484698,9.996131421294967e-07,-4.653264842622184e-05,9.996131421294967e-07,-2.647524285805268e-05,9.996131421294967e-07,-5.078065982326636e-05,9.996131421294967e-07,-5.06744766803085e-05
9.9961915728521e-07,0.74826442431778,9.9961915728521e-07,-1.282159621446557e-05,9.9961915728521e-07,-3.554297840111411e-06,9.9961915728521e-07,-9.067751394486816e-06,9.9961915728521e-07,-8.659152367363933e-06
9.996252132973382e-07,0.7598574748882084,9.996252132973382e-07,2.674593524709981e-05,9.996252132973382e-07,2.100119216795534e-05,9.996252132973382e-07,3.910700993452419e-05,9.996252132973382e-07,3.972096459461447e-05
9.996270930214579e-07,0.7620812007656669,9.996270930214579e-07,3.14434982906022e-05,9.996270930214579e-07,2.311351487075853e-05,9.996270930214579e-07,4.51616729018096e-05,9.996270930214579e-07,4.577600094095497e-05
9.996305793892938e-07,0.7640873800660477,9.996305793892938e-07,4.112388385505066e-05,9.996305793892938e-07,2.753905767236701e-05,9.996305793892938e-07,5.438800373850715e-05,9.996305793892938e-07,5.473351591488887e-05
9.996315461898915e-07,0.7643811012928295,9.996315461898915e-07,4.411443588922134e-05,9.996315461898915e-07,2.897228363111834e-05,9.996315461898915e-07,5.683832729391554e-05,9.996315461898915e-07,5.708889022811654e-05
9.996334797910868e-07,0.7656579920532405,9.996334797910868e-07,4.54463419944888e-05,9.996334797910868e-07,2.892989304208411e-05,9.996334797910868e-07,5.697477259622026e-05,9.996334797910868e-07,5.712532332439743e-05
9.99635774588588e-07,0.7679810349207041,9.99635774588588e-07,4.544229557338703e-05,9.99635774588588e-07,2.799488208609822e-05,9.99635774588588e-07,5.506629860480727e-05,9.99635774588588e-07,5.508608744489083e-05
9.996390377954196e-07,0.77183677281935,9.996390377954196e-07,5.595224179464572e-05,9.996390377954196e-07,3.384366064632961e-05,9.996390377954196e-07,6.44948343771867e-05,9.996390377954196e-07,6.440520500398883e-05
9.996425885216667e-07,0.7764683619253767,9.996425885216667e-07,7.754689252922855e-05,9.996425885216667e-07,4.701527466951881e-05,9.996425885216667e-07,8.780647191043147e-05,9.996425885216667e-07,8.779128037261342e-05
9.996463154586189e-07,0.7811833718344688,9.996463154586189e-07,8.971983184351132e-05,9.996463154586189e-07,5.344165205011324e-05,9.996463154586189e-07,0.0001007925896525449,9.996463154586189e-07,0.0001008054505602867
9.99648002681882e-07,0.7831691419794184,9.99648002681882e-07,8.846944356223652e-05,9.99648002681882e-07,5.171644284155113e-05,9.99648002681882e-07,9.876757037673164e-05,9.99648002681882e-07,9.873142901130078e-05
9.996513771284083e-07,0.7863691436429352,9.996513771284083e-07,6.37320016285938e-05,9.996513771284083e-07,3.387569697309299e-05,9.996513771284083e-07,6.720112219940245e-05,9.996513771284083e-07,6.682163135853993e-05
9.99655018307063e-07,0.788844746961321,9.99655018307063e-07,2.34375083700176e-05,9.99655018307063e-07,6.897152895042644e-06,9.99655018307063e-07,1.552811164042913e-05,9.99655018307063e-07,1.466097369397705e-05
9.996560132991254e-07,0.7894576284770282,9.996560132991254e-07,1.820748977009725e-05,9.996560132991254e-07,3.727966300076118e-06,9.996560132991254e-07,7.983624960347709e-06,9.996560132991254e-07,7.033115541895887e-06
9.996580032832501e-07,0.7907030508690974,9.996580032832501e-07,1.324998028569826e-05,9.996580032832501e-07,1.441699415873869e-06,9.996580032832501e-07,7.474854445838812e-07,9.996580032832501e-07,-1.528788288450565e-07
9.996610672315141e-07,0.7921340710657012,9.996610672315141e-07,-7.122633964000027e-06,9.996610672315141e-07,-1.02970274061591e-05,9.996610672315141e-07,-2.180380888601881e-05,9.996610672315141e-07,-2.245832925288909e-05
9.996643253959737e-07,0.7929598599414558,9.996643253959737e-07,-3.059806739116562e-05,9.996643253959737e-07,-2.401606251820782e-05,9.996643253959737e-07,-4.754104425851047e-05,9.996643253959737e-07,-4.809897410252154e-05
9.996688939037912e-07,0.793482919437457,9.996688939037912e-07,-5.594717487455085e-05,9.996688939037912e-07,-3.798159910585388e-05,9.996688939037912e-07,-7.439121826095483e-05,9.996688939037912e-07,-7.479790887286362e-05
9.996744279542042e-07,0.7941306538262437,9.996744279542042e-07,-6.459754342518699e-05,9.996744279542042e-07,-4.010887344190719e-05,9.996744279542042e-07,-7.941363585255082e-05,9.996744279542042e-07,-7.944396022365951e-05
9.996801854543599e-07,0.7950693024321265,9.996801854543599e-07,-6.800828028335015e-05,9.996801854543599e-07,-3.9631755533909e-05,9.996801854543599e-07,-7.716781557201994e-05,9.996801854543599e-07,-7.685117865570752e-05
9.996825825747386e-07,0.7955379603302679,9.996825825747386e-07,-5.633040761828458e-05,9.996825825747386e-07,-3.108605021282018e-05,9.996825825747386e-07,-6.167367107197359e-05,9.996825825747386e-07,-6.126112507556555e-05
9.996873768154961e-07,0.7964891084786956,9.996873768154961e-07,-4.856546940327419e-06,9.996873768154961e-07,3.168006929451497e-06,9.996873768154961e-07,2.72241184397413e-06,9.996873768154961e-07,3.542790072772317e-06
9.996886481877898e-07,0.7967309891218292,9.996886481877898e-07,8.625384228785307e-06,9.996886481877898e-07,1.174452243343699e-05,9.996886481877898e-07,2.016607528454534e-05,9.996886481877898e-07,2.114758612922974e-05
9.996911909323772e-07,0.7971352591613605,9.996911909323772e-07,2.156959520145882e-05,9.996911909323772e-07,1.897269080837497e-05,9.996911909323772e-07,3.703033899143759e-05,9.996911909323772e-07,3.801854366262428e-05
9.99692191625637e-07,0.7972638276322874,9.99692191625637e-07,2.308233843139933e-05,9.99692191625637e-07,1.926389775188955e-05,9.99692191625637e-07,3.862496095631509e-05,9.99692191625637e-07,3.949451424064181e-05
9.996941930121568e-07,0.7974805915561567,9.996941930121568e-07,3.034421730444342e-05,9.996941930121568e-07,2.273210777097086e-05,9.996941930121568e-07,4.550921057522568e-05,9.996941930121568e-07,4.611703680789867e-05
9.996970288237283e-07,0.797752669211614,9.996970288237283e-07,4.620983305710868e-05,9.996970288237283e-07,3.14716597691626e-05,9.996970288237283e-07,6.143629023065423e-05,9.996970288237283e-07,6.18408247254858e-05
9.996992496455573e-07,0.7979631663475716,9.996992496455573e-07,4.901159486606305e-05,9.996992496455573e-07,3.201485537771511e-05,9.996992496455573e-07,6.346515635148456e-05,9.996992496455573e-07,6.378375605300436e-05
9.997020146810258e-07,0.798218275038669,9.997020146810258e-07,4.848309909961972e-05,9.997020146810258e-07,3.020475525785505e-05,9.997020146810258e-07,6.040859978997051e-05,9.997020146810258e-07,6.051272856277052e-05
9.997050090233754e-07,0.7984531825120224,9.997050090233754e-07,5.686472138248178e-05,9.997050090233754e-07,3.45702208723316e-05,9.997050090233754e-07,6.700446085027347e-05,9.997050090233754e-07,6.693067478040284e-05
9.997101115442632e-07,0.7987358034810011,9.997101115442632e-07,8.48690905411789e-05,9.997101115442632e-07,5.134608943364269e-05,9.997101115442632e-07,9.621156678553936e-05,9.997101115442632e-07,9.617236809237691e-05
9.997137784675757e-07,0.7988502058762973,9.997137784675757e-07,9.16404080747951e-05,9.997137784675757e-07,5.412113691521049e-05,9.997137784675757e-07,0.0001025052361374193,9.997137784675757e-07,0.0001024450372768324
9.997152946748216e-07,0.7988743220572971,9.997152946748216e-07,8.669672642788575e-05,9.997152946748216e-07,4.99610335856842e-05,9.997152946748216e-07,9.620031799763923e-05,9.997152946748216e-07,9.608547816467861e-05
9.997160527784446e-07,0.7988802627874549,9.997160527784446e-07,8.074180400879855e-05,9.997160527784446e-07,4.554618500924202e-05,9.997160527784446e-07,8.879614812579773e-05,9.997160527784446e-07,8.861023695036617e-05
9.997175689856907e-07,0.7988811555582387,9.997175689856907e-07,6.376129979958943e-05,9.997175689856907e-07,3.347590027477764e-05,9.997175689856907e-07,6.746112315544313e-05,9.997175689856907e-07,6.704841620491126e-05
9.997206014001829e-07,0.7988684576185632,9.997206014001829e-07,2.798571571605432e-05,9.997206014001829e-07,9.291809304242091e-06,9.997206014001829e-07,2.15256448208379e-05,9.997206014001829e-07,2.065553806794959e-05
9.997215054797846e-07,0.7988667276447803,9.997215054797846e-07,2.14450213046484e-05,9.997215054797846e-07,5.01859823468713e-06,9.997215054797846e-07,1.212278486473608e-05,9.997215054797846e-07,1.111125715163459e-05
9.99723313638988e-07,0.7988804490632194,9.99723313638988e-07,1.641961642459386e-05,9.99723313638988e-07,2.154563858018503e-06,9.99723313638988e-07,4.289405459942927e-06,9.99723313638988e-07,3.260852079970132e-06
9.997258608627724e-07,0.7988991427844405,9.997258608627724e-07,2.971887229598745e-06,9.997258608627724e-07,-4.748889373259081e-06,9.997258608627724e-07,-1.032132460072727e-05,9.997258608627724e-07,-1.102719646985538e-05
9.997283519505524e-07,0.7988966697573259,9.997283519505524e-07,-1.777358735250389e-05,9.997283519505524e-07,-1.622899652581295e-05,9.997283519505524e-07,-3.345687388610572e-05,9.997283519505524e-07,-3.405318333225384e-05
9.997318356972152e-07,0.798893101007077,9.997318356972152e-07,-4.008119673967666e-05,9.997318356972152e-07,-2.844316572957761e-05,9.997318356972152e-07,-5.848825101026103e-05,9.997318356972152e-07,-5.905613182937588e-05
9.997388031905407e-07,0.7989344508184412,9.997388031905407e-07,-6.692606794701404e-05,9.997388031905407e-07,-4.239023264610786e-05,9.997388031905407e-07,-8.412639498969944e-05,9.997388031905407e-07,-8.430047959481796e-05
9.997460728602843e-07,0.799028421185681,9.997460728602843e-07,-6.634846838713761e-05,9.997460728602843e-07,-3.884104060664325e-05,9.997460728602843e-07,-7.547648784041526e-05,9.997460728602843e-07,-7.517443900955931e-05
9.997480691570504e-07,0.7990552734661009,9.997480691570504e-07,-5.94847989525159e-05,9.997480691570504e-07,-3.293342852048116e-05,9.997480691570504e-07,-6.5486956188391e-05,9.997480691570504e-07,-6.507423319447371e-05
9.997520617505826e-07,0.7991282428938647,9.997520617505826e-07,-1.905549176110276e-05,9.997520617505826e-07,-3.795757912169941e-06,9.997520617505826e-07,-1.496014152818805e-05,9.997520617505826e-07,-1.424033078626921e-05
9.997571534208958e-07,0.7992092066026354,9.997571534208958e-07,2.686717597260612e-05,9.997571534208958e-07,2.299513828953602e-05,9.997571534208958e-07,4.22827644652673e-05,9.997571534208958e-07,4.329185097950025e-05
9.997586558727192e-07,0.7992230992009151,9.997586558727192e-07,3.109495613723755e-05,9.997586558727192e-07,2.401832444471888e-05,9.997586558727192e-07,4.8217894276244e-05,9.997586558727192e-07,4.926935760746146e-05
9.99761660776366e-07,0.7992431380433386,9.99761660776366e-07,3.906181445493473e-05,9.99761660776366e-07,2.724304493603887e-05,9.99761660776366e-07,5.567915722688539e-05,9.99761660776366e-07,5.645199766241327e-05
9.997625064348448e-07,0.7992485950749048,9.997625064348448e-07,4.264019464361976e-05,9.997625064348448e-07,2.905049188192352e-05,9.997625064348448e-07,5.854189567364628e-05,9.997625064348448e-07,5.917073896696993e-05
9.997641977518023e-07,0.7992599107949555,9.997641977518023e-07,4.803643232183203e-05,9.997641977518023e-07,3.134867829144601e-05,9.997641977518023e-07,6.305622404747315e-05,9.997641977518023e-07,6.348874378848603e-05
9.99766733319664e-07,0.7992707805685327,9.99766733319664e-07,4.670549331559673e-05,9.99766733319664e-07,2.993217706299693e-05,9.99766733319664e-07,5.961830452628705e-05,9.99766733319664e-07,5.978762589325849e-05
9.997691643341334e-07,0.7992817225053436,9.997691643341334e-07,4.923267271053766e-05,9.997691643341334e-07,3.219542691054237e-05,9.997691643341334e-07,5.974575389780459e-05,9.997691643341334e-07,5.962286286252251e-05
9.997740263630724e-07,0.7993182847427379,9.997740263630724e-07,7.416034323693651e-05,9.997740263630724e-07,4.74989146950523e-05,9.997740263630724e-07,8.450957624425858e-05,9.997740263630724e-07,8.426174767480443e-05
9.997773709724226e-07,0.7993434775994829,9.997773709724226e-07,8.938739486807185e-05,9.997773709724226e-07,5.307946247240295e-05,9.997773709724226e-07,0.0001010427404369865,9.997773709724226e-07,0.0001009166274561272
9.997826506741157e-07,0.7993477303377445,9.997826506741157e-07,7.480145342247734e-05,9.997826506741157e-07,3.446579454475719e-05,9.997826506741157e-07,8.130088943865353e-05,9.997826506741157e-07,8.09103805918354e-05
9.99787134083552e-07,0.7993165281423413,9.99787134083552e-07,3.064524830331301e-05,9.99787134083552e-07,4.382214065067964e-06,9.99787134083552e-07,2.524815530753494e-05,9.99787134083552e-07,2.407989704574317e-05
9.997887352659415e-07,0.7993079447263076,9.997887352659415e-07,2.038637975495497e-05,9.997887352659415e-07,-4.603573011150007e-07,9.997887352659415e-07,1.06853295513679e-05,9.997887352659415e-07,9.00768353000612e-06
9.997913512483393e-07,0.7993008188063253,9.997913512483393e-07,8.341108733519703e-06,9.997913512483393e-07,-3.225792574850399e-06,9.997913512483393e-07,-4.575205925326654e-06,9.997913512483393e-07,-6.583560339994361e-06
9.997948932902277e-07,0.7992864134556251,9.997948932902277e-07,-1.726965388876998e-05,9.997948932902277e-07,-1.38134123592579e-05,9.997948932902277e-07,-3.261676213916954e-05,9.997948932902277e-07,-3.392320077097427e-05
9.997979540697984e-07,0.7992691592409191,9.997979540697984e-07,-4.355999543780728e-05,9.997979540697984e-07,-2.805234424468191e-05,9.997979540697984e-07,-6.209354974940528e-05,9.997979540697984e-07,-6.252564537596209e-05
9.998020216552865e-07,0.7992666128778773,9.998020216552865e-07,-5.475594236873186e-05,9.998020216552865e-07,-3.279208019768832e-05,9.998020216552865e-07,-7.327681413210329e-05,9.998020216552865e-07,-7.279522873726479e-05
9.998060960866545e-07,0.7992675527670189,9.998060960866545e-07,-6.642127774160995e-05,9.998060960866545e-07,-3.890873038476477e-05,9.998060960866545e-07,-8.202734782842227e-05,9.998060960866545e-07,-8.117549676538461e-05
9.998128174797598e-07,0.7992860796080573,9.998128174797598e-07,-6.573813487413748e-05,9.998128174797598e-07,-3.715986173694347e-05,9.998128174797598e-07,-7.396321857309017e-05,9.998128174797598e-07,-7.358840131105909e-05
9.998148429354496e-07,0.7993005759778282,9.998148429354496e-07,-5.457923479641913e-05,9.998148429354496e-07,-2.952223473962742e-05,9.998148429354496e-07,-5.92663551198866e-05,9.998148429354496e-07,-5.88528906106201e-05
9.998188938468292e-07,0.7993467958294634,9.998188938468292e-07,-1.375505286530146e-05,9.998188938468292e-07,-2.560730902097427e-06,9.998188938468292e-07,-8.06922952785976e-06,9.998188938468292e-07,-6.842136184950267e-06
9.998201880414514e-07,0.799362294832422,9.998201880414514e-07,-9.446041330324014e-07,9.998201880414514e-07,5.580536418391137e-06,9.998201880414514e-07,8.307794791205059e-06,9.998201880414514e-07,9.916645457764022e-06
9.998227764306957e-07,0.7993844471091108,9.998227764306957e-07,1.436811446588779e-05,9.998227764306957e-07,1.445047303180062e-05,9.998227764306957e-07,2.830090919192847e-05,9.998227764306957e-07,3.124755301903955e-05
