VT("/net064") X,VT("/net064") Y,VT("/net017") X,VT("/net017") Y,VT("/net072") X,VT("/net072") Y,VT("/net037") X,VT("/net037") Y,VT("/I70/I0/net44") X,VT("/I70/I0/net44") Y,VT("/I70/I0/net56") X,VT("/I70/I0/net56") Y
0,1.201425819695031e-06,0,1.447174425094392e-06,0,8.393772461329175e-07,0,4.67607096312166e-07,0,1.162831014595643e-06,0,0.7999980380896219
3.5e-08,1.201425740538243e-06,3.5e-08,1.447174344160891e-06,3.5e-08,8.393771810278848e-07,3.5e-08,4.676070650027969e-07,3.5e-08,1.162830922017785e-06,3.5e-08,0.7999980380894367
1.05e-07,1.201425740521245e-06,1.05e-07,1.447174343902044e-06,1.05e-07,8.393771808079172e-07,1.05e-07,4.676070649511486e-07,1.05e-07,1.162830921748915e-06,1.05e-07,0.7999980380894345
2.45e-07,1.201425746487094e-06,2.45e-07,1.447174349021526e-06,2.45e-07,8.393771855041307e-07,2.45e-07,4.676070671674065e-07,2.45e-07,1.162830928804056e-06,2.45e-07,0.7999980380894439
5.249999999999999e-07,1.201425761595126e-06,5.249999999999999e-07,1.447174363596126e-06,5.249999999999999e-07,8.393771974709641e-07,5.249999999999999e-07,4.676070727748128e-07,5.249999999999999e-07,1.162830945850129e-06,5.249999999999999e-07,0.7999980380894703
9.990000000000001e-07,1.201425775500558e-06,9.990000000000001e-07,1.447174377397594e-06,9.990000000000001e-07,8.393772089280957e-07,9.990000000000001e-07,4.676070784662357e-07,9.990000000000001e-07,1.162830962232691e-06,9.990000000000001e-07,0.7999980380894955
9.9900834375e-07,7.069955629171058e-07,9.9900834375e-07,8.960732183450183e-07,9.9900834375e-07,3.636150816974722e-07,9.9900834375e-07,1.46621141526771e-07,9.9900834375e-07,5.422011547832015e-07,9.9900834375e-07,0.7999972988029646
9.990250312499998e-07,5.773272197526189e-07,9.990250312499998e-07,8.064748868028464e-07,9.990250312499998e-07,3.373342614819549e-07,9.990250312499998e-07,2.325860244154363e-07,9.990250312499998e-07,4.360255788142074e-07,9.990250312499998e-07,0.7999969739363306
9.990584062499994e-07,6.17301376435e-07,9.990584062499994e-07,8.585732582290097e-07,9.990584062499994e-07,3.796847503807531e-07,9.990584062499994e-07,2.687303825373369e-07,9.990584062499994e-07,4.97286350896504e-07,9.990584062499994e-07,0.7999968328838125
9.991251562499987e-07,6.597322101846894e-07,9.991251562499987e-07,8.843501392051527e-07,9.991251562499987e-07,3.763977630748315e-07,9.991251562499987e-07,2.302087260877114e-07,9.991251562499987e-07,5.134070355242815e-07,9.991251562499987e-07,0.7999968822349751
9.992586562499972e-07,6.4408087389677e-07,9.992586562499972e-07,8.758619093776479e-07,9.992586562499972e-07,3.763147362433029e-07,9.992586562499972e-07,2.431456488268713e-07,9.992586562499972e-07,5.052780162106932e-07,9.992586562499972e-07,0.7999968810307556
9.9932240672772e-07,6.754846967402449e-07,9.9932240672772e-07,9.110708285154554e-07,9.9932240672772e-07,4.092581502642489e-07,9.9932240672772e-07,2.657263119029538e-07,9.9932240672772e-07,5.488347058089201e-07,9.9932240672772e-07,0.7999969326326269
9.993831004256184e-07,8.35592417176778e-07,9.993831004256184e-07,1.077313876539477e-06,9.993831004256184e-07,5.431841556572689e-07,9.993831004256184e-07,3.347419883238224e-07,9.993831004256184e-07,7.365716432499431e-07,9.993831004256184e-07,0.7999972265014605
9.994667515462349e-07,2.649194679549256e-06,9.994667515462349e-07,2.978477462476078e-06,9.994667515462349e-07,2.090644470427938e-06,9.994667515462349e-07,1.160252704030782e-06,9.994667515462349e-07,2.89107762002429e-06,9.994667515462349e-07,0.8000005497073541
9.995233041641782e-07,1.239473375871958e-05,9.995233041641782e-07,1.319556037622393e-05,9.995233041641782e-07,1.041061475288952e-05,9.995233041641782e-07,5.601988258802594e-06,9.995233041641782e-07,1.447376319976164e-05,9.995233041641782e-07,0.8000183872925886
9.995388677356862e-07,1.742660191448242e-05,9.995388677356862e-07,1.852288012201425e-05,9.995388677356862e-07,1.479200328341534e-05,9.995388677356862e-07,8.047698077537568e-06,9.995388677356862e-07,2.050655813751035e-05,9.995388677356862e-07,0.8000273419808211
9.995466495214403e-07,1.851278859586658e-05,9.995466495214403e-07,1.947653997083123e-05,9.995466495214403e-07,1.540110768195402e-05,9.995466495214403e-07,7.983065766318831e-06,9.995466495214403e-07,2.161238262681382e-05,9.995466495214403e-07,0.8000300184444532
9.995622130929485e-07,1.09570151851221e-05,9.995622130929485e-07,1.073664638284396e-05,9.995622130929485e-07,7.648177122176098e-06,9.995622130929485e-07,2.206743074535956e-06,9.995622130929485e-07,1.179012897312531e-05,9.995622130929485e-07,0.8000209294614932
9.995751375342299e-07,-1.52873669062791e-06,9.995751375342299e-07,-2.579339357256237e-06,9.995751375342299e-07,-3.235383923243902e-06,9.995751375342299e-07,-3.998281896442367e-06,9.995751375342299e-07,-3.220157127617325e-06,9.995751375342299e-07,0.8000019228720089
9.995806203063914e-07,-1.085912552885673e-06,9.995806203063914e-07,-1.158342867671078e-06,9.995806203063914e-07,-1.084371699433327e-06,9.995806203063914e-07,-7.501712045691515e-07,9.995806203063914e-07,-1.725462976426346e-06,9.995806203063914e-07,0.8000011010887202
9.995877340511692e-07,-8.577169424136038e-06,9.995877340511692e-07,-9.486520698945629e-06,9.995877340511692e-07,-8.42955253429528e-06,9.995877340511692e-07,-5.922389652222589e-06,9.995877340511692e-07,-1.08380837424126e-05,9.995877340511692e-07,0.7999881797445401
9.995912575874081e-07,-1.798320756452121e-05,9.995912575874081e-07,-2.039688580961359e-05,9.995912575874081e-07,-1.828929291995212e-05,9.995912575874081e-07,-1.345984885175327e-05,9.995912575874081e-07,-2.297291072842314e-05,9.995912575874081e-07,0.7999736113778397
9.995979964901014e-07,-4.044578762237544e-05,9.995979964901014e-07,-4.502591740189633e-05,9.995979964901014e-07,-3.899604945506599e-05,9.995979964901014e-07,-2.641361988651524e-05,9.995979964901014e-07,-5.095161066230347e-05,9.995979964901014e-07,0.7999386228316072
9.9961013455164e-07,-8.644191920886649e-05,9.9961013455164e-07,-9.306757993976327e-05,9.9961013455164e-07,-7.75815304640258e-05,9.9961013455164e-07,-4.633215807861804e-05,9.9961013455164e-07,-0.0001054493355905136,9.9961013455164e-07,0.7998620276627348
9.996131421294967e-07,-9.011679587343159e-05,9.996131421294967e-07,-9.563179396441557e-05,9.996131421294967e-07,-7.841363005093826e-05,9.996131421294967e-07,-4.404792649218937e-05,9.996131421294967e-07,-0.0001084452072098685,9.996131421294967e-07,0.7998524729042995
9.9961915728521e-07,-4.709994379673954e-05,9.9961915728521e-07,-4.264944936418221e-05,9.9961915728521e-07,-2.805310549969741e-05,9.9961915728521e-07,-6.515705804367487e-07,9.9961915728521e-07,-4.920500723572648e-05,9.9961915728521e-07,0.7999037201185645
9.996252132973382e-07,2.401600222203577e-05,9.996252132973382e-07,3.660309243402396e-05,9.996252132973382e-07,3.940694598195166e-05,9.996252132973382e-07,4.367301521075017e-05,9.996252132973382e-07,4.110044336651354e-05,9.996252132973382e-07,0.7999988322288404
9.996270930214579e-07,4.109050836218865e-05,9.996270930214579e-07,5.349842306926275e-05,9.996270930214579e-07,5.134671585944343e-05,9.996270930214579e-07,4.68894273349123e-05,9.996270930214579e-07,6.10516497682653e-05,9.996270930214579e-07,0.8000225385620914
9.996305793892938e-07,6.807395131029037e-05,9.996305793892938e-07,7.948901841755296e-05,9.996305793892938e-07,7.01553082600589e-05,9.996305793892938e-07,5.207487834325011e-05,9.996305793892938e-07,9.068245921009738e-05,9.996305793892938e-07,0.8000629600653179
9.996315461898915e-07,7.477272803867771e-05,9.996315461898915e-07,8.591655853788931e-05,9.996315461898915e-07,7.499637152433176e-05,9.996315461898915e-07,5.369837145424674e-05,9.996315461898915e-07,9.773455037282947e-05,9.996315461898915e-07,0.8000737967727172
9.996334797910868e-07,8.269485820858452e-05,9.996334797910868e-07,9.242900822210144e-05,9.996334797910868e-07,7.863269530504912e-05,9.996334797910868e-07,5.214534706205725e-05,9.996334797910868e-07,0.0001048633564496311,9.996334797910868e-07,0.8000886200039099
9.99635774588588e-07,8.813936419295939e-05,9.99635774588588e-07,9.602750370803575e-05,9.99635774588588e-07,7.966690091173235e-05,9.99635774588588e-07,4.883105574620741e-05,9.99635774588588e-07,0.0001085045820910696,9.99635774588588e-07,0.8001017884772091
9.996390377954196e-07,0.0001058885913786232,9.996390377954196e-07,0.0001144573579144886,9.996390377954196e-07,9.481258472804619e-05,9.996390377954196e-07,5.764052287509091e-05,9.996390377954196e-07,0.0001281344720037807,9.996390377954196e-07,0.8001357105063683
9.996425885216667e-07,0.0001393257602182709,9.996425885216667e-07,0.0001518935819710269,9.996425885216667e-07,0.0001273717839923016,9.996425885216667e-07,8.056783899860407e-05,9.996425885216667e-07,0.0001693070153664192,9.996425885216667e-07,0.8001933533993977
9.996463154586189e-07,0.0001663270315986232,9.996463154586189e-07,0.0001800095557264134,9.996463154586189e-07,0.0001491887496171639,9.996463154586189e-07,9.1045743517499e-05,9.996463154586189e-07,0.0002013068532132264,9.996463154586189e-07,0.8002429149301535
9.99648002681882e-07,0.0001711292983546497,9.99648002681882e-07,0.000183358286451404,9.99648002681882e-07,0.0001497903364724796,9.99648002681882e-07,8.712304803423703e-05,9.99648002681882e-07,0.0002056746297713322,9.99648002681882e-07,0.8002551150453791
9.996513771284083e-07,0.000145839923812072,9.996513771284083e-07,0.0001493908810224032,9.996513771284083e-07,0.0001149222648173955,9.996513771284083e-07,5.220517343472707e-05,9.996513771284083e-07,0.0001683567876678312,9.996513771284083e-07,0.8002310070387262
9.99655018307063e-07,8.568489382842397e-05,9.99655018307063e-07,7.763052904507259e-05,9.99655018307063e-07,4.977402752639301e-05,9.99655018307063e-07,4.657898981382117e-07,9.99655018307063e-07,8.699333384288021e-05,9.99655018307063e-07,0.800158820096204
9.996560132991254e-07,7.269512345875996e-05,9.996560132991254e-07,6.347281526374211e-05,9.996560132991254e-07,3.854147248294027e-05,9.996560132991254e-07,-5.692897059916528e-06,9.996560132991254e-07,7.028784980503091e-05,9.996560132991254e-07,0.8001436755203237
9.996580032832501e-07,5.325099563886597e-05,9.996580032832501e-07,4.407388877152947e-05,9.996580032832501e-07,2.48599493843069e-05,9.996580032832501e-07,-9.398705103572789e-06,9.996580032832501e-07,4.693501673105108e-05,9.996580032832501e-07,0.8001217692731606
9.996610672315141e-07,1.309504968681629e-05,9.996610672315141e-07,1.799981557148211e-06,9.996610672315141e-07,-9.698245845748152e-06,9.996610672315141e-07,-2.828920431455319e-05,9.996610672315141e-07,-9.448586986314638e-07,9.996610672315141e-07,0.8000701286427918
9.996643253959737e-07,-3.227630357035641e-05,9.996643253959737e-07,-4.61351967653189e-05,9.996643253959737e-07,-4.910161881847813e-05,9.996643253959737e-07,-5.068636358626234e-05,9.996643253959737e-07,-5.441156928074902e-05,9.996643253959737e-07,0.8000066057210846
9.996688939037912e-07,-8.83152539533247e-05,9.996688939037912e-07,-0.0001036317877841595,9.996688939037912e-07,-9.402140047789411e-05,9.996688939037912e-07,-7.250274933362566e-05,9.996688939037912e-07,-0.0001186299306800119,9.996688939037912e-07,0.7999211937762335
9.996744279542042e-07,-0.0001237715036588742,9.996744279542042e-07,-0.0001351843581735362,9.996744279542042e-07,-0.0001134764530385632,9.996744279542042e-07,-7.147440903497459e-05,9.996744279542042e-07,-0.0001535345762696682,9.996744279542042e-07,0.7998543128377847
9.996801854543599e-07,-0.0001393045558451794,9.996801854543599e-07,-0.0001470276436748996,9.996801854543599e-07,-0.0001190168369919748,9.996801854543599e-07,-6.630325071500651e-05,9.996801854543599e-07,-0.0001653288881060043,9.996801854543599e-07,0.7998095972885761
9.996825825747386e-07,-0.0001270319096221401,9.996825825747386e-07,-0.0001306053420550759,9.996825825747386e-07,-0.0001020513865477111,9.996825825747386e-07,-4.966917561568674e-05,9.996825825747386e-07,-0.000146699583020565,9.996825825747386e-07,0.7998162823301408
9.996873768154961e-07,-5.131277910434792e-05,9.996873768154961e-07,-4.119319876640496e-05,9.996873768154961e-07,-2.041106755152381e-05,9.996873768154961e-07,1.443499930834159e-05,9.996873768154961e-07,-4.566049823301705e-05,9.996873768154961e-07,0.7999041875408971
9.996886481877898e-07,-2.633623643036656e-05,9.996886481877898e-07,-1.305692502161812e-05,9.996886481877898e-07,3.590571297004674e-06,9.996886481877898e-07,3.05582151318528e-05,9.996886481877898e-07,-1.342895551552572e-05,9.996886481877898e-07,0.7999350946127685
9.996911909323772e-07,8.524257325824494e-06,9.996911909323772e-07,2.312195554208e-05,9.996911909323772e-07,3.129037507574005e-05,9.996911909323772e-07,4.304705926316602e-05,9.996911909323772e-07,2.877548577689878e-05,9.996911909323772e-07,0.7999775082237681
9.99692191625637e-07,1.761789485634456e-05,9.99692191625637e-07,3.133548082997642e-05,9.99692191625637e-07,3.637131983459436e-05,9.99692191625637e-07,4.258998050336263e-05,9.99692191625637e-07,3.850671619056838e-05,9.99692191625637e-07,0.7999884319827166
9.996941930121568e-07,3.751250592801146e-05,9.996941930121568e-07,5.040936401610425e-05,9.996941930121568e-07,5.022634998712451e-05,9.996941930121568e-07,4.645515192677321e-05,9.996941930121568e-07,5.996737576929778e-05,9.996941930121568e-07,0.800014392420737
9.996970288237283e-07,6.945399694016569e-05,9.996970288237283e-07,8.298618227897995e-05,9.996970288237283e-07,7.628755785035519e-05,9.996970288237283e-07,5.970941447287581e-05,9.996970288237283e-07,9.571103390502736e-05,9.996970288237283e-07,0.800060315029594
9.996992496455573e-07,8.32922102434111e-05,9.996992496455573e-07,9.523230700787058e-05,9.996992496455573e-07,8.379524530432497e-05,9.996992496455573e-07,5.934868170436333e-05,9.996992496455573e-07,0.0001093460451636626,9.996992496455573e-07,0.8000830724541202
9.997020146810258e-07,9.210716653634468e-05,9.997020146810258e-07,0.0001011504858170257,9.997020146810258e-07,8.529138157347969e-05,9.997020146810258e-07,5.392339608956115e-05,9.997020146810258e-07,0.0001156426437776875,9.997020146810258e-07,0.8001019054491587
9.997050090233754e-07,0.0001080168306746479,9.997050090233754e-07,0.0001168472748848383,9.997050090233754e-07,9.741843550561366e-05,9.997050090233754e-07,5.956485774322958e-05,9.997050090233754e-07,0.000132112638686808,9.997050090233754e-07,0.8001328969971414
9.997101115442632e-07,0.000153527361716953,9.997101115442632e-07,0.0001667859553332063,9.997101115442632e-07,0.0001398985451781635,9.997101115442632e-07,8.779296378549644e-05,9.997101115442632e-07,0.0001866053362107327,9.997101115442632e-07,0.8002136170699268
9.997137784675757e-07,0.000173524679540697,9.997137784675757e-07,0.0001863666077208356,9.997137784675757e-07,0.0001536017784631962,9.997137784675757e-07,9.141626385506111e-05,9.997137784675757e-07,0.0002089136231094128,9.997137784675757e-07,0.800254383333551
9.997152946748216e-07,0.0001727974279863694,9.997152946748216e-07,0.0001833541853045968,9.997152946748216e-07,0.0001485082505973375,9.997152946748216e-07,8.33164412368863e-05,9.997152946748216e-07,0.0002061679968387483,9.997152946748216e-07,0.8002588261016255
9.997160527784446e-07,0.0001675629292477146,9.997160527784446e-07,0.0001759942445215724,9.997160527784446e-07,0.0001405888315491359,9.997160527784446e-07,7.4900765731287e-05,9.997160527784446e-07,0.0001983036846062039,9.997160527784446e-07,0.8002542887664219
9.997175689856907e-07,0.0001483393074479472,9.997175689856907e-07,0.0001511604563888288,9.997175689856907e-07,0.0001160021425256919,9.997175689856907e-07,5.17813110009884e-05,9.997175689856907e-07,0.0001710664051667533,9.997175689856907e-07,0.8002330792152691
9.997206014001829e-07,9.531501212819717e-05,9.997206014001829e-07,8.754017462083025e-05,9.997206014001829e-07,5.820721330746078e-05,9.997206014001829e-07,5.504539850743368e-06,9.997206014001829e-07,9.952359596715912e-05,9.997206014001829e-07,0.8001702339002239
9.997215054797846e-07,8.069901966983582e-05,9.997215054797846e-07,7.106790545991888e-05,9.997215054797846e-07,4.48116175626328e-05,9.997215054797846e-07,-2.75881133738022e-06,9.997215054797846e-07,8.052739864395766e-05,9.997215054797846e-07,0.8001532142475066
9.99723313638988e-07,6.102497949852701e-05,9.99723313638988e-07,5.075073280418733e-05,9.99723313638988e-07,3.048553395073834e-05,9.99723313638988e-07,-7.380886505517749e-06,9.99723313638988e-07,5.69056110284541e-05,9.99723313638988e-07,0.8001322620704981
9.997258608627724e-07,3.103798091400414e-05,9.997258608627724e-07,1.987856616301757e-05,9.997258608627724e-07,6.586180820579519e-06,9.997258608627724e-07,-1.838945595244824e-05,9.997258608627724e-07,2.210374414735715e-05,9.997258608627724e-07,0.8000967118469086
9.997283519505524e-07,-6.286173353539786e-06,9.997283519505524e-07,-2.015727563922123e-05,9.997283519505524e-07,-2.690175373037445e-05,9.997283519505524e-07,-3.898725688724094e-05,9.997283519505524e-07,-2.311357254749602e-05,9.997283519505524e-07,0.8000460258034391
9.997318356972152e-07,-5.268991373790769e-05,9.997318356972152e-07,-6.85447245729259e-05,9.997318356972152e-07,-6.578453744001752e-05,9.997318356972152e-07,-5.998927397022851e-05,9.997318356972152e-07,-7.858973792540236e-05,9.997318356972152e-07,0.7999771879479578
9.997388031905407e-07,-0.0001180709083633821,9.997388031905407e-07,-0.0001329452689905744,9.997388031905407e-07,-0.0001141892190711741,9.997388031905407e-07,-7.809908285729358e-05,9.997388031905407e-07,-0.0001514332786857063,9.997388031905407e-07,0.7998670795531263
9.997460728602843e-07,-0.0001372360905050216,9.997460728602843e-07,-0.0001454659223108644,9.997460728602843e-07,-0.0001171458146400194,9.997460728602843e-07,-6.429551704482318e-05,9.997460728602843e-07,-0.0001632559444324766,9.997460728602843e-07,0.79981231190126
9.997480691570504e-07,-0.0001300279846404172,9.997480691570504e-07,-0.0001353252119921003,9.997480691570504e-07,-0.0001065544467351531,9.997480691570504e-07,-5.370414519004425e-05,9.997480691570504e-07,-0.0001513373523467354,9.997480691570504e-07,0.799814237583464
9.997520617505826e-07,-7.417703671826622e-05,9.997520617505826e-07,-6.773556804095037e-05,9.997520617505826e-07,-4.369255458894469e-05,9.997520617505826e-07,-2.48610105802758e-06,9.997520617505826e-07,-7.588462006826214e-05,9.997520617505826e-07,0.7998759035864208
9.997571534208958e-07,1.455619617219464e-05,9.997571534208958e-07,3.205213965908053e-05,9.997571534208958e-07,3.874046223051482e-05,9.997571534208958e-07,4.97922294032293e-05,9.997571534208958e-07,3.342731942258399e-05,9.997571534208958e-07,0.7999810273584712
9.997586558727192e-07,3.554326439188881e-05,9.997586558727192e-07,5.381754075090997e-05,9.997586558727192e-07,5.28198680561806e-05,9.997586558727192e-07,5.257278643012658e-05,9.997586558727192e-07,5.548826415256726e-05,9.997586558727192e-07,0.8000040584214093
9.99761660776366e-07,7.250756479112697e-05,9.99761660776366e-07,9.200803703492124e-05,9.99761660776366e-07,7.553698813014687e-05,9.99761660776366e-07,5.502674834975192e-05,9.99761660776366e-07,8.92432062644537e-05,9.99761660776366e-07,0.8000428579126384
9.997625064348448e-07,8.281845065498992e-05,9.997625064348448e-07,0.0001028195052437665,9.997625064348448e-07,8.224313851174289e-05,9.997625064348448e-07,5.691848701453126e-05,9.997625064348448e-07,9.843774675065435e-05,9.997625064348448e-07,0.8000543217831717
9.997641977518023e-07,9.920303841112147e-05,9.997641977518023e-07,0.0001195116801233386,9.997641977518023e-07,9.182915760144163e-05,9.997641977518023e-07,5.957576796273598e-05,9.997641977518023e-07,0.0001138476668692846,9.997641977518023e-07,0.8000753868218686
9.99766733319664e-07,0.0001076244444979913,9.99766733319664e-07,0.0001263264592137766,9.99766733319664e-07,9.071372144516345e-05,9.99766733319664e-07,5.339949246304854e-05,9.99766733319664e-07,0.0001197566731823833,9.99766733319664e-07,0.8000919899041689
9.997691643341334e-07,0.0001133468086010424,9.997691643341334e-07,0.0001323924683253325,9.997691643341334e-07,9.211613702983881e-05,9.997691643341334e-07,5.231894637294225e-05,9.997691643341334e-07,0.0001251089679500729,9.997691643341334e-07,0.8001096595817808
